
T2218 000:442 SEGGER J-Link V4.80a Log File (0001ms, 0308ms total)
T2218 000:442 DLL Compiled: Jan 10 2014 21:21:47 (0001ms, 0308ms total)
T2218 000:442 Logging started @ 2020-07-04 17:07 (0001ms, 0308ms total)
T2218 000:443 JLINK_SetWarnOutHandler(...) (0000ms, 0308ms total)
T2218 000:443 JLINK_OpenEx(...)
Firmware: J-Link V9 compiled Jan 10 2014 19:51:25
Hardware: V9.00
Feature(s): RDI, FlashBP, FlashDL, JFlash, GDB  returns O.K. (0271ms, 0579ms total)
T2218 000:714 JLINK_SetErrorOutHandler(...) (0000ms, 0579ms total)
T2218 000:714 JLINK_ExecCommand("ProjectFile = "E:\Work\8.SwingDoor\2.Src\SwingDoorApp\MDK_PRO\JLinkSettings.ini"", ...)Device "UNSPECIFIED" selected (0 KB flash, 0 KB RAM).  returns 0x00 (0023ms, 0602ms total)
T2218 000:739 JLINK_ExecCommand("Device = STM32F407ZGTx", ...)Device "UNSPECIFIED" selected (0 KB flash, 0 KB RAM).  returns 0x00 (0001ms, 0603ms total)
T2218 000:740 JLINK_ExecCommand("DisableConnectionTimeout", ...)  returns 0x01 (0000ms, 0603ms total)
T2218 000:740 JLINK_GetHardwareVersion()  returns 0x15F90 (0000ms, 0603ms total)
T2218 000:740 JLINK_GetDLLVersion()  returns 48001 (0000ms, 0603ms total)
T2218 000:740 JLINK_GetFirmwareString(...) (0000ms, 0603ms total)
T2218 000:744 JLINK_GetDLLVersion()  returns 48001 (0000ms, 0603ms total)
T2218 000:744 JLINK_GetCompileDateTime() (0000ms, 0603ms total)
T2218 000:745 JLINK_GetFirmwareString(...) (0000ms, 0603ms total)
T2218 000:745 JLINK_GetHardwareVersion()  returns 0x15F90 (0000ms, 0603ms total)
T2218 000:748 JLINK_TIF_Select(JLINKARM_TIF_SWD)  returns 0x00 (0004ms, 0607ms total)
T2218 000:752 JLINK_SetSpeed(1000) (0001ms, 0608ms total)
T2218 000:753 JLINK_GetId() >0x108 TIF>Found SWD-DP with ID 0x2BA01477 >0x0D TIF> >0x21 TIF> >0x0D TIF> >0x28 TIF> >0x0D TIF> >0x28 TIF> >0x0D TIF> >0x21 TIF> >0x0D TIF> >0x28 TIF> >0x0D TIF> >0x21 TIF> >0x0D TIF> >0x21 TIF> >0x0D TIF> >0x21 TIF> >0x0D TIF> >0x21 TIF> >0x0D TIF> >0x28 TIF> >0x0D TIF> >0x28 TIF> >0x0D TIF> >0x21 TIF> >0x0D TIF> >0x28 TIF> >0x0D TIF> >0x28 TIF> >0x0D TIF> >0x28 TIF> >0x0D TIF> >0x21 TIF> >0x0D TIF> >0x21 TIF> >0x0D TIF> >0x28 TIF> >0x0D TIF> >0x21 TIF> >0x0D TIF>
 >0x21 TIF>Found Cortex-M4 r0p1, Little endian. -- CPU_WriteMem(4 bytes @ 0xE0002000) -- CPU_ReadMem(4 bytes @ 0xE000EDF0) -- CPU_WriteMem(4 bytes @ 0xE000EDF0) -- CPU_ReadMem(4 bytes @ 0xE0002000)FPUnit: 6 code (BP) slots and 2 literal slots -- CPU_ReadMem(4 bytes @ 0xE000EDFC) -- CPU_WriteMem(4 bytes @ 0xE000EDFC) -- CPU_ReadMem(4 bytes @ 0xE0001000) -- CPU_WriteMem(4 bytes @ 0xE0001000) -- CPU_ReadMem(4 bytes @ 0xE00FF010)TPIU fitted. -- CPU_ReadMem(4 bytes @ 0xE00FF014)ETM fitted.
 -- CPU_ReadMem(4 bytes @ 0xE00FF018) >0x0D TIF> >0x21 TIF>  returns 0x2BA01477 (0076ms, 0684ms total)
T2218 000:829 JLINK_GetDeviceFamily()  returns 14 (0000ms, 0684ms total)
T2218 000:832 JLINK_ReadMem (0xE00FFFF0, 0x0010 Bytes, ...) -- CPU is running -- CPU_ReadMem(16 bytes @ 0xE00FFFF0) -- Data:  0D 00 00 00 10 00 00 00 05 00 00 00 B1 00 00 00  returns 0x00 (0001ms, 0685ms total)
T2218 000:833 JLINK_ReadMem (0xE00FFFD0, 0x0020 Bytes, ...) -- CPU is running -- CPU_ReadMem(32 bytes @ 0xE00FFFD0) -- Data:  00 00 00 00 00 00 00 00 00 00 00 00 00 00 00 00 ...  returns 0x00 (0002ms, 0687ms total)
T2218 000:835 JLINK_ReadMem (0xE00FF000, 0x0018 Bytes, ...) -- CPU is running -- CPU_ReadMem(24 bytes @ 0xE00FF000) -- Data:  03 F0 F0 FF 03 20 F0 FF 03 30 F0 FF 03 10 F0 FF ...  returns 0x00 (0001ms, 0688ms total)
T2218 000:836 JLINK_ReadMemU32(0xE000ED00, 0x0001 Items, ...) -- CPU is running -- CPU_ReadMem(4 bytes @ 0xE000ED00) -- Data:  41 C2 0F 41  returns 0x01 (0001ms, 0689ms total)
T2218 000:837 JLINK_ReadMemU32(0xE000EF40, 0x0001 Items, ...) -- CPU is running -- CPU_ReadMem(4 bytes @ 0xE000EF40) -- Data:  21 00 11 10  returns 0x01 (0001ms, 0690ms total)
T2218 000:838 JLINK_ReadMemU32(0xE000EF44, 0x0001 Items, ...) -- CPU is running -- CPU_ReadMem(4 bytes @ 0xE000EF44) -- Data:  11 00 00 11  returns 0x01 (0001ms, 0691ms total)
T2218 000:839 JLINK_SetResetType(JLINKARM_RESET_TYPE_NORMAL)  returns JLINKARM_RESET_TYPE_NORMAL (0000ms, 0691ms total)
T2218 000:839 JLINK_Reset() -- CPU is running -- CPU_WriteMem(4 bytes @ 0xE000EDF0) -- CPU is running -- CPU_WriteMem(4 bytes @ 0xE000EDFC) >0x35 TIF> -- CPU is running -- CPU_WriteMem(4 bytes @ 0xE000ED0C) -- CPU is running -- CPU_ReadMem(4 bytes @ 0xE000EDF0) -- CPU is running -- CPU_ReadMem(4 bytes @ 0xE000EDF0) -- CPU is running -- CPU_WriteMem(4 bytes @ 0xE000EDF0) -- CPU is running -- CPU_WriteMem(4 bytes @ 0xE000EDFC) -- CPU is running -- CPU_ReadMem(4 bytes @ 0xE000EDF0)
 -- CPU_WriteMem(4 bytes @ 0xE0002000) (0022ms, 0713ms total)
T2218 000:861 JLINK_Halt()  returns 0x00 (0000ms, 0713ms total)
T2218 000:861 JLINK_IsHalted()  returns TRUE (0000ms, 0713ms total)
T2218 000:861 JLINK_ReadMemU32(0xE000EDF0, 0x0001 Items, ...) -- CPU_ReadMem(4 bytes @ 0xE000EDF0) -- Data:  03 00 03 00  returns 0x01 (0001ms, 0714ms total)
T2218 000:862 JLINK_WriteU32(0xE000EDF0, 0xA05F0003) -- CPU_WriteMem(4 bytes @ 0xE000EDF0)  returns 0x00 (0001ms, 0715ms total)
T2218 000:863 JLINK_WriteU32(0xE000EDFC, 0x01000000) -- CPU_WriteMem(4 bytes @ 0xE000EDFC)  returns 0x00 (0001ms, 0716ms total)
T2218 000:876 JLINK_GetHWStatus(...)  returns 0x00 (0001ms, 0717ms total)
T2218 000:884 JLINK_GetNumBPUnits(Type = 0xFFFFFF00)  returns 0x06 (0000ms, 0717ms total)
T2218 000:884 JLINK_GetNumBPUnits(Type = 0xF0)  returns 0x2000 (0000ms, 0717ms total)
T2218 000:884 JLINK_GetNumWPUnits()  returns 0x04 (0000ms, 0717ms total)
T2218 000:893 JLINK_GetSpeed()  returns 0x3E8 (0000ms, 0717ms total)
T2218 000:898 JLINK_ReadMemU32(0xE000E004, 0x0001 Items, ...) -- CPU_ReadMem(4 bytes @ 0xE000E004) -- Data:  02 00 00 00  returns 0x01 (0001ms, 0718ms total)
T2218 000:899 JLINK_ReadMemU32(0xE000E004, 0x0001 Items, ...) -- CPU_ReadMem(4 bytes @ 0xE000E004) -- Data:  02 00 00 00  returns 0x01 (0001ms, 0719ms total)
T2218 000:900 JLINK_WriteMem(0xE0001000, 0x001C Bytes, ...) -- Data:  01 00 00 00 00 00 00 00 00 00 00 00 00 00 00 00 ... -- CPU_WriteMem(28 bytes @ 0xE0001000)  returns 0x1C (0001ms, 0720ms total)
T2218 000:901 JLINK_ReadMem (0xE0001000, 0x001C Bytes, ...) -- CPU_ReadMem(28 bytes @ 0xE0001000) -- Data:  01 00 00 40 00 00 00 00 00 00 00 00 00 00 00 00 ...  returns 0x00 (0001ms, 0721ms total)
T2218 000:902 JLINK_Halt()  returns 0x00 (0000ms, 0721ms total)
T2218 000:902 JLINK_IsHalted()  returns TRUE (0000ms, 0721ms total)
T2218 000:927 JLINK_WriteMem(0x20000000, 0x0180 Bytes, ...) -- Data:  00 BE 0A E0 0D 78 2D 06 68 40 08 24 40 00 00 D3 ... -- CPU_WriteMem(384 bytes @ 0x20000000)  returns 0x180 (0005ms, 0726ms total)
T2218 000:932 JLINK_WriteReg(R0, 0x08000000)  returns 0x00 (0000ms, 0726ms total)
T2218 000:932 JLINK_WriteReg(R1, 0x00B71B00)  returns 0x00 (0000ms, 0726ms total)
T2218 000:932 JLINK_WriteReg(R2, 0x00000001)  returns 0x00 (0001ms, 0727ms total)
T2218 000:933 JLINK_WriteReg(R3, 0x00000000)  returns 0x00 (0000ms, 0727ms total)
T2218 000:933 JLINK_WriteReg(R4, 0x00000000)  returns 0x00 (0000ms, 0727ms total)
T2218 000:933 JLINK_WriteReg(R5, 0x00000000)  returns 0x00 (0000ms, 0727ms total)
T2218 000:933 JLINK_WriteReg(R6, 0x00000000)  returns 0x00 (0000ms, 0727ms total)
T2218 000:933 JLINK_WriteReg(R7, 0x00000000)  returns 0x00 (0000ms, 0727ms total)
T2218 000:933 JLINK_WriteReg(R8, 0x00000000)  returns 0x00 (0000ms, 0727ms total)
T2218 000:933 JLINK_WriteReg(R9, 0x2000017C)  returns 0x00 (0000ms, 0727ms total)
T2218 000:933 JLINK_WriteReg(R10, 0x00000000)  returns 0x00 (0000ms, 0727ms total)
T2218 000:933 JLINK_WriteReg(R11, 0x00000000)  returns 0x00 (0000ms, 0727ms total)
T2218 000:933 JLINK_WriteReg(R12, 0x00000000)  returns 0x00 (0000ms, 0727ms total)
T2218 000:933 JLINK_WriteReg(R13 (SP), 0x20001000)  returns 0x00 (0000ms, 0727ms total)
T2218 000:933 JLINK_WriteReg(R14, 0x20000001)  returns 0x00 (0000ms, 0727ms total)
T2218 000:933 JLINK_WriteReg(R15 (PC), 0x20000054)  returns 0x00 (0000ms, 0727ms total)
T2218 000:933 JLINK_WriteReg(XPSR, 0x01000000)  returns 0x00 (0000ms, 0727ms total)
T2218 000:933 JLINK_WriteReg(MSP, 0x20001000)  returns 0x00 (0000ms, 0727ms total)
T2218 000:933 JLINK_WriteReg(PSP, 0x20001000)  returns 0x00 (0000ms, 0727ms total)
T2218 000:933 JLINK_WriteReg(CFBP, 0x00000000)  returns 0x00 (0000ms, 0727ms total)
T2218 000:933 JLINK_SetBPEx(Addr = 0x20000000, Type = 0xFFFFFFF2) -- CPU_ReadMem(4 bytes @ 0x20000000) -- CPU_WriteMem(4 bytes @ 0x20000000) -- CPU_ReadMem(4 bytes @ 0x20000000) -- CPU_WriteMem(4 bytes @ 0x20000000) -- CPU_ReadMem(2 bytes @ 0x20000000)  returns 0x00000001 (0005ms, 0732ms total)
T2218 000:938 JLINK_Go() -- CPU_WriteMem(2 bytes @ 0x20000000) -- CPU_WriteMem(4 bytes @ 0xE0002008) -- CPU_WriteMem(4 bytes @ 0xE000200C) -- CPU_WriteMem(4 bytes @ 0xE0002010) -- CPU_WriteMem(4 bytes @ 0xE0002014) -- CPU_WriteMem(4 bytes @ 0xE0002018) -- CPU_WriteMem(4 bytes @ 0xE000201C) (0010ms, 0742ms total)
T2218 000:948 JLINK_IsHalted() -- CPU_ReadMem(2 bytes @ 0x20000000)  returns TRUE (0006ms, 0748ms total)
T2218 000:954 JLINK_ReadReg(R15 (PC))  returns 0x20000000 (0000ms, 0742ms total)
T2218 000:954 JLINK_ClrBPEx(BPHandle = 0x00000001)  returns 0x00 (0000ms, 0742ms total)
T2218 000:954 JLINK_ReadReg(R0)  returns 0x00000000 (0000ms, 0742ms total)
T2218 000:955 JLINK_WriteReg(R0, 0x08010000)  returns 0x00 (0000ms, 0742ms total)
T2218 000:955 JLINK_WriteReg(R1, 0x00010000)  returns 0x00 (0000ms, 0742ms total)
T2218 000:955 JLINK_WriteReg(R2, 0x000000FF)  returns 0x00 (0000ms, 0742ms total)
T2218 000:955 JLINK_WriteReg(R3, 0x00000000)  returns 0x00 (0000ms, 0742ms total)
T2218 000:955 JLINK_WriteReg(R4, 0x00000000)  returns 0x00 (0000ms, 0742ms total)
T2218 000:955 JLINK_WriteReg(R5, 0x00000000)  returns 0x00 (0000ms, 0742ms total)
T2218 000:955 JLINK_WriteReg(R6, 0x00000000)  returns 0x00 (0000ms, 0742ms total)
T2218 000:955 JLINK_WriteReg(R7, 0x00000000)  returns 0x00 (0000ms, 0742ms total)
T2218 000:955 JLINK_WriteReg(R8, 0x00000000)  returns 0x00 (0000ms, 0742ms total)
T2218 000:955 JLINK_WriteReg(R9, 0x2000017C)  returns 0x00 (0000ms, 0742ms total)
T2218 000:955 JLINK_WriteReg(R10, 0x00000000)  returns 0x00 (0000ms, 0742ms total)
T2218 000:955 JLINK_WriteReg(R11, 0x00000000)  returns 0x00 (0000ms, 0742ms total)
T2218 000:955 JLINK_WriteReg(R12, 0x00000000)  returns 0x00 (0000ms, 0742ms total)
T2218 000:955 JLINK_WriteReg(R13 (SP), 0x20001000)  returns 0x00 (0000ms, 0742ms total)
T2218 000:955 JLINK_WriteReg(R14, 0x20000001)  returns 0x00 (0000ms, 0742ms total)
T2218 000:955 JLINK_WriteReg(R15 (PC), 0x20000020)  returns 0x00 (0000ms, 0742ms total)
T2218 000:955 JLINK_WriteReg(XPSR, 0x01000000)  returns 0x00 (0000ms, 0742ms total)
T2218 000:955 JLINK_WriteReg(MSP, 0x20001000)  returns 0x00 (0000ms, 0742ms total)
T2218 000:955 JLINK_WriteReg(PSP, 0x20001000)  returns 0x00 (0000ms, 0742ms total)
T2218 000:955 JLINK_WriteReg(CFBP, 0x00000000)  returns 0x00 (0000ms, 0742ms total)
T2218 000:955 JLINK_SetBPEx(Addr = 0x20000000, Type = 0xFFFFFFF2)  returns 0x00000002 (0000ms, 0742ms total)
T2218 000:955 JLINK_Go() (0002ms, 0744ms total)
T2218 000:957 JLINK_IsHalted()  returns FALSE (0001ms, 0745ms total)
T2218 000:983 JLINK_IsHalted()  returns FALSE (0001ms, 0745ms total)
T2218 000:985 JLINK_IsHalted()  returns FALSE (0001ms, 0745ms total)
T2218 000:987 JLINK_IsHalted()  returns FALSE (0001ms, 0745ms total)
T2218 000:989 JLINK_IsHalted()  returns FALSE (0001ms, 0745ms total)
T2218 000:991 JLINK_IsHalted()  returns FALSE (0001ms, 0745ms total)
T2218 000:993 JLINK_IsHalted()  returns FALSE (0001ms, 0745ms total)
T2218 000:995 JLINK_IsHalted()  returns FALSE (0001ms, 0745ms total)
T2218 000:997 JLINK_IsHalted()  returns FALSE (0001ms, 0745ms total)
T2218 000:999 JLINK_IsHalted()  returns FALSE (0001ms, 0745ms total)
T2218 001:001 JLINK_IsHalted()  returns FALSE (0001ms, 0745ms total)
T2218 001:003 JLINK_IsHalted()  returns FALSE (0001ms, 0745ms total)
T2218 001:005 JLINK_IsHalted()  returns FALSE (0001ms, 0745ms total)
T2218 001:007 JLINK_IsHalted()  returns FALSE (0001ms, 0745ms total)
T2218 001:009 JLINK_IsHalted()  returns FALSE (0001ms, 0745ms total)
T2218 001:011 JLINK_IsHalted()  returns FALSE (0001ms, 0745ms total)
T2218 001:013 JLINK_IsHalted()  returns FALSE (0001ms, 0745ms total)
T2218 001:015 JLINK_IsHalted() -- CPU_ReadMem(2 bytes @ 0x20000000)  returns TRUE (0006ms, 0750ms total)
T2218 001:021 JLINK_ReadReg(R15 (PC))  returns 0x20000000 (0000ms, 0744ms total)
T2218 001:021 JLINK_ClrBPEx(BPHandle = 0x00000002)  returns 0x00 (0000ms, 0744ms total)
T2218 001:021 JLINK_ReadReg(R0)  returns 0x00000000 (0000ms, 0744ms total)
T2218 001:021 JLINK_WriteReg(R0, 0x00000001)  returns 0x00 (0000ms, 0744ms total)
T2218 001:021 JLINK_WriteReg(R1, 0x00010000)  returns 0x00 (0000ms, 0744ms total)
T2218 001:021 JLINK_WriteReg(R2, 0x000000FF)  returns 0x00 (0000ms, 0744ms total)
T2218 001:021 JLINK_WriteReg(R3, 0x00000000)  returns 0x00 (0000ms, 0744ms total)
T2218 001:021 JLINK_WriteReg(R4, 0x00000000)  returns 0x00 (0000ms, 0744ms total)
T2218 001:021 JLINK_WriteReg(R5, 0x00000000)  returns 0x00 (0000ms, 0744ms total)
T2218 001:021 JLINK_WriteReg(R6, 0x00000000)  returns 0x00 (0000ms, 0744ms total)
T2218 001:021 JLINK_WriteReg(R7, 0x00000000)  returns 0x00 (0000ms, 0744ms total)
T2218 001:021 JLINK_WriteReg(R8, 0x00000000)  returns 0x00 (0000ms, 0744ms total)
T2218 001:021 JLINK_WriteReg(R9, 0x2000017C)  returns 0x00 (0000ms, 0744ms total)
T2218 001:021 JLINK_WriteReg(R10, 0x00000000)  returns 0x00 (0000ms, 0744ms total)
T2218 001:021 JLINK_WriteReg(R11, 0x00000000)  returns 0x00 (0000ms, 0744ms total)
T2218 001:021 JLINK_WriteReg(R12, 0x00000000)  returns 0x00 (0000ms, 0744ms total)
T2218 001:021 JLINK_WriteReg(R13 (SP), 0x20001000)  returns 0x00 (0000ms, 0744ms total)
T2218 001:021 JLINK_WriteReg(R14, 0x20000001)  returns 0x00 (0000ms, 0744ms total)
T2218 001:021 JLINK_WriteReg(R15 (PC), 0x20000082)  returns 0x00 (0000ms, 0744ms total)
T2218 001:021 JLINK_WriteReg(XPSR, 0x01000000)  returns 0x00 (0000ms, 0744ms total)
T2218 001:021 JLINK_WriteReg(MSP, 0x20001000)  returns 0x00 (0000ms, 0744ms total)
T2218 001:021 JLINK_WriteReg(PSP, 0x20001000)  returns 0x00 (0000ms, 0744ms total)
T2218 001:021 JLINK_WriteReg(CFBP, 0x00000000)  returns 0x00 (0001ms, 0745ms total)
T2218 001:022 JLINK_SetBPEx(Addr = 0x20000000, Type = 0xFFFFFFF2)  returns 0x00000003 (0000ms, 0745ms total)
T2218 001:022 JLINK_Go() (0002ms, 0747ms total)
T2218 001:024 JLINK_IsHalted() -- CPU_ReadMem(2 bytes @ 0x20000000)  returns TRUE (0005ms, 0752ms total)
T2218 001:029 JLINK_ReadReg(R15 (PC))  returns 0x20000000 (0000ms, 0747ms total)
T2218 001:029 JLINK_ClrBPEx(BPHandle = 0x00000003)  returns 0x00 (0000ms, 0747ms total)
T2218 001:029 JLINK_ReadReg(R0)  returns 0x00000000 (0000ms, 0747ms total)
T2218 001:084 JLINK_WriteMem(0x20000000, 0x0180 Bytes, ...) -- Data:  00 BE 0A E0 0D 78 2D 06 68 40 08 24 40 00 00 D3 ... -- CPU_WriteMem(384 bytes @ 0x20000000)  returns 0x180 (0006ms, 0753ms total)
T2218 001:090 JLINK_WriteReg(R0, 0x08000000)  returns 0x00 (0000ms, 0753ms total)
T2218 001:090 JLINK_WriteReg(R1, 0x00B71B00)  returns 0x00 (0000ms, 0753ms total)
T2218 001:090 JLINK_WriteReg(R2, 0x00000002)  returns 0x00 (0000ms, 0753ms total)
T2218 001:090 JLINK_WriteReg(R3, 0x00000000)  returns 0x00 (0000ms, 0753ms total)
T2218 001:090 JLINK_WriteReg(R4, 0x00000000)  returns 0x00 (0000ms, 0753ms total)
T2218 001:090 JLINK_WriteReg(R5, 0x00000000)  returns 0x00 (0000ms, 0753ms total)
T2218 001:090 JLINK_WriteReg(R6, 0x00000000)  returns 0x00 (0000ms, 0753ms total)
T2218 001:090 JLINK_WriteReg(R7, 0x00000000)  returns 0x00 (0000ms, 0753ms total)
T2218 001:090 JLINK_WriteReg(R8, 0x00000000)  returns 0x00 (0000ms, 0753ms total)
T2218 001:090 JLINK_WriteReg(R9, 0x2000017C)  returns 0x00 (0000ms, 0753ms total)
T2218 001:090 JLINK_WriteReg(R10, 0x00000000)  returns 0x00 (0000ms, 0753ms total)
T2218 001:090 JLINK_WriteReg(R11, 0x00000000)  returns 0x00 (0000ms, 0753ms total)
T2218 001:090 JLINK_WriteReg(R12, 0x00000000)  returns 0x00 (0000ms, 0753ms total)
T2218 001:090 JLINK_WriteReg(R13 (SP), 0x20001000)  returns 0x00 (0000ms, 0753ms total)
T2218 001:090 JLINK_WriteReg(R14, 0x20000001)  returns 0x00 (0000ms, 0753ms total)
T2218 001:090 JLINK_WriteReg(R15 (PC), 0x20000054)  returns 0x00 (0000ms, 0753ms total)
T2218 001:090 JLINK_WriteReg(XPSR, 0x01000000)  returns 0x00 (0000ms, 0753ms total)
T2218 001:090 JLINK_WriteReg(MSP, 0x20001000)  returns 0x00 (0000ms, 0753ms total)
T2218 001:090 JLINK_WriteReg(PSP, 0x20001000)  returns 0x00 (0000ms, 0753ms total)
T2218 001:090 JLINK_WriteReg(CFBP, 0x00000000)  returns 0x00 (0000ms, 0753ms total)
T2218 001:090 JLINK_SetBPEx(Addr = 0x20000000, Type = 0xFFFFFFF2) -- CPU_ReadMem(4 bytes @ 0x20000000) -- CPU_WriteMem(4 bytes @ 0x20000000) -- CPU_ReadMem(4 bytes @ 0x20000000) -- CPU_WriteMem(4 bytes @ 0x20000000) -- CPU_ReadMem(2 bytes @ 0x20000000)  returns 0x00000004 (0006ms, 0759ms total)
T2218 001:096 JLINK_Go() -- CPU_WriteMem(2 bytes @ 0x20000000) (0004ms, 0763ms total)
T2218 001:100 JLINK_IsHalted() -- CPU_ReadMem(2 bytes @ 0x20000000)  returns TRUE (0005ms, 0768ms total)
T2218 001:106 JLINK_ReadReg(R15 (PC))  returns 0x20000000 (0000ms, 0763ms total)
T2218 001:106 JLINK_ClrBPEx(BPHandle = 0x00000004)  returns 0x00 (0000ms, 0763ms total)
T2218 001:106 JLINK_ReadReg(R0)  returns 0x00000000 (0000ms, 0763ms total)
T2218 001:106 JLINK_WriteMem(0x20000180, 0x0400 Bytes, ...) -- Data:  E0 CC 01 20 D5 03 01 08 59 3E 01 08 C5 3A 01 08 ... -- CPU_WriteMem(1024 bytes @ 0x20000180)  returns 0x400 (0014ms, 0777ms total)
T2218 001:120 JLINK_WriteReg(R0, 0x08010000)  returns 0x00 (0000ms, 0777ms total)
T2218 001:120 JLINK_WriteReg(R1, 0x00000400)  returns 0x00 (0000ms, 0777ms total)
T2218 001:120 JLINK_WriteReg(R2, 0x20000180)  returns 0x00 (0000ms, 0777ms total)
T2218 001:120 JLINK_WriteReg(R3, 0x00000000)  returns 0x00 (0000ms, 0777ms total)
T2218 001:120 JLINK_WriteReg(R4, 0x00000000)  returns 0x00 (0000ms, 0777ms total)
T2218 001:120 JLINK_WriteReg(R5, 0x00000000)  returns 0x00 (0000ms, 0777ms total)
T2218 001:120 JLINK_WriteReg(R6, 0x00000000)  returns 0x00 (0000ms, 0777ms total)
T2218 001:120 JLINK_WriteReg(R7, 0x00000000)  returns 0x00 (0000ms, 0777ms total)
T2218 001:120 JLINK_WriteReg(R8, 0x00000000)  returns 0x00 (0000ms, 0777ms total)
T2218 001:120 JLINK_WriteReg(R9, 0x2000017C)  returns 0x00 (0000ms, 0777ms total)
T2218 001:120 JLINK_WriteReg(R10, 0x00000000)  returns 0x00 (0000ms, 0777ms total)
T2218 001:120 JLINK_WriteReg(R11, 0x00000000)  returns 0x00 (0000ms, 0777ms total)
T2218 001:120 JLINK_WriteReg(R12, 0x00000000)  returns 0x00 (0000ms, 0777ms total)
T2218 001:120 JLINK_WriteReg(R13 (SP), 0x20001000)  returns 0x00 (0000ms, 0777ms total)
T2218 001:120 JLINK_WriteReg(R14, 0x20000001)  returns 0x00 (0000ms, 0777ms total)
T2218 001:120 JLINK_WriteReg(R15 (PC), 0x20000108)  returns 0x00 (0001ms, 0778ms total)
T2218 001:121 JLINK_WriteReg(XPSR, 0x01000000)  returns 0x00 (0000ms, 0778ms total)
T2218 001:121 JLINK_WriteReg(MSP, 0x20001000)  returns 0x00 (0000ms, 0778ms total)
T2218 001:121 JLINK_WriteReg(PSP, 0x20001000)  returns 0x00 (0000ms, 0778ms total)
T2218 001:121 JLINK_WriteReg(CFBP, 0x00000000)  returns 0x00 (0000ms, 0778ms total)
T2218 001:121 JLINK_SetBPEx(Addr = 0x20000000, Type = 0xFFFFFFF2)  returns 0x00000005 (0000ms, 0778ms total)
T2218 001:121 JLINK_Go() (0002ms, 0780ms total)
T2218 001:123 JLINK_IsHalted()  returns FALSE (0001ms, 0781ms total)
T2218 001:127 JLINK_IsHalted()  returns FALSE (0001ms, 0781ms total)
T2218 001:129 JLINK_IsHalted() -- CPU_ReadMem(2 bytes @ 0x20000000)  returns TRUE (0005ms, 0785ms total)
T2218 001:134 JLINK_ReadReg(R15 (PC))  returns 0x20000000 (0000ms, 0780ms total)
T2218 001:134 JLINK_ClrBPEx(BPHandle = 0x00000005)  returns 0x00 (0000ms, 0780ms total)
T2218 001:134 JLINK_ReadReg(R0)  returns 0x00000000 (0000ms, 0780ms total)
T2218 001:135 JLINK_WriteMem(0x20000180, 0x0400 Bytes, ...) -- Data:  89 01 01 08 E0 C6 01 20 E0 CC 01 20 E0 C8 01 20 ... -- CPU_WriteMem(1024 bytes @ 0x20000180)  returns 0x400 (0014ms, 0794ms total)
T2218 001:149 JLINK_WriteReg(R0, 0x08010400)  returns 0x00 (0000ms, 0794ms total)
T2218 001:149 JLINK_WriteReg(R1, 0x00000400)  returns 0x00 (0000ms, 0794ms total)
T2218 001:149 JLINK_WriteReg(R2, 0x20000180)  returns 0x00 (0000ms, 0794ms total)
T2218 001:149 JLINK_WriteReg(R3, 0x00000000)  returns 0x00 (0000ms, 0794ms total)
T2218 001:149 JLINK_WriteReg(R4, 0x00000000)  returns 0x00 (0000ms, 0794ms total)
T2218 001:149 JLINK_WriteReg(R5, 0x00000000)  returns 0x00 (0000ms, 0794ms total)
T2218 001:149 JLINK_WriteReg(R6, 0x00000000)  returns 0x00 (0000ms, 0794ms total)
T2218 001:149 JLINK_WriteReg(R7, 0x00000000)  returns 0x00 (0000ms, 0794ms total)
T2218 001:149 JLINK_WriteReg(R8, 0x00000000)  returns 0x00 (0000ms, 0794ms total)
T2218 001:149 JLINK_WriteReg(R9, 0x2000017C)  returns 0x00 (0000ms, 0794ms total)
T2218 001:149 JLINK_WriteReg(R10, 0x00000000)  returns 0x00 (0000ms, 0794ms total)
T2218 001:149 JLINK_WriteReg(R11, 0x00000000)  returns 0x00 (0000ms, 0794ms total)
T2218 001:149 JLINK_WriteReg(R12, 0x00000000)  returns 0x00 (0000ms, 0794ms total)
T2218 001:149 JLINK_WriteReg(R13 (SP), 0x20001000)  returns 0x00 (0000ms, 0794ms total)
T2218 001:149 JLINK_WriteReg(R14, 0x20000001)  returns 0x00 (0000ms, 0794ms total)
T2218 001:149 JLINK_WriteReg(R15 (PC), 0x20000108)  returns 0x00 (0000ms, 0794ms total)
T2218 001:149 JLINK_WriteReg(XPSR, 0x01000000)  returns 0x00 (0000ms, 0794ms total)
T2218 001:149 JLINK_WriteReg(MSP, 0x20001000)  returns 0x00 (0000ms, 0794ms total)
T2218 001:149 JLINK_WriteReg(PSP, 0x20001000)  returns 0x00 (0000ms, 0794ms total)
T2218 001:149 JLINK_WriteReg(CFBP, 0x00000000)  returns 0x00 (0000ms, 0794ms total)
T2218 001:149 JLINK_SetBPEx(Addr = 0x20000000, Type = 0xFFFFFFF2)  returns 0x00000006 (0000ms, 0794ms total)
T2218 001:149 JLINK_Go() (0003ms, 0797ms total)
T2218 001:152 JLINK_IsHalted()  returns FALSE (0001ms, 0798ms total)
T2218 001:155 JLINK_IsHalted()  returns FALSE (0001ms, 0798ms total)
T2218 001:157 JLINK_IsHalted() -- CPU_ReadMem(2 bytes @ 0x20000000)  returns TRUE (0006ms, 0803ms total)
T2218 001:163 JLINK_ReadReg(R15 (PC))  returns 0x20000000 (0000ms, 0797ms total)
T2218 001:163 JLINK_ClrBPEx(BPHandle = 0x00000006)  returns 0x00 (0000ms, 0797ms total)
T2218 001:163 JLINK_ReadReg(R0)  returns 0x00000000 (0000ms, 0797ms total)
T2218 001:163 JLINK_WriteMem(0x20000180, 0x0400 Bytes, ...) -- Data:  0F B4 00 B5 8D B0 10 A9 09 90 00 91 0B 90 4F F0 ... -- CPU_WriteMem(1024 bytes @ 0x20000180)  returns 0x400 (0014ms, 0811ms total)
T2218 001:177 JLINK_WriteReg(R0, 0x08010800)  returns 0x00 (0001ms, 0812ms total)
T2218 001:178 JLINK_WriteReg(R1, 0x00000400)  returns 0x00 (0000ms, 0812ms total)
T2218 001:178 JLINK_WriteReg(R2, 0x20000180)  returns 0x00 (0000ms, 0812ms total)
T2218 001:178 JLINK_WriteReg(R3, 0x00000000)  returns 0x00 (0000ms, 0812ms total)
T2218 001:178 JLINK_WriteReg(R4, 0x00000000)  returns 0x00 (0000ms, 0812ms total)
T2218 001:178 JLINK_WriteReg(R5, 0x00000000)  returns 0x00 (0000ms, 0812ms total)
T2218 001:178 JLINK_WriteReg(R6, 0x00000000)  returns 0x00 (0000ms, 0812ms total)
T2218 001:178 JLINK_WriteReg(R7, 0x00000000)  returns 0x00 (0000ms, 0812ms total)
T2218 001:178 JLINK_WriteReg(R8, 0x00000000)  returns 0x00 (0000ms, 0812ms total)
T2218 001:178 JLINK_WriteReg(R9, 0x2000017C)  returns 0x00 (0000ms, 0812ms total)
T2218 001:178 JLINK_WriteReg(R10, 0x00000000)  returns 0x00 (0000ms, 0812ms total)
T2218 001:178 JLINK_WriteReg(R11, 0x00000000)  returns 0x00 (0000ms, 0812ms total)
T2218 001:178 JLINK_WriteReg(R12, 0x00000000)  returns 0x00 (0000ms, 0812ms total)
T2218 001:178 JLINK_WriteReg(R13 (SP), 0x20001000)  returns 0x00 (0000ms, 0812ms total)
T2218 001:178 JLINK_WriteReg(R14, 0x20000001)  returns 0x00 (0000ms, 0812ms total)
T2218 001:178 JLINK_WriteReg(R15 (PC), 0x20000108)  returns 0x00 (0000ms, 0812ms total)
T2218 001:178 JLINK_WriteReg(XPSR, 0x01000000)  returns 0x00 (0000ms, 0812ms total)
T2218 001:178 JLINK_WriteReg(MSP, 0x20001000)  returns 0x00 (0000ms, 0812ms total)
T2218 001:178 JLINK_WriteReg(PSP, 0x20001000)  returns 0x00 (0000ms, 0812ms total)
T2218 001:178 JLINK_WriteReg(CFBP, 0x00000000)  returns 0x00 (0000ms, 0812ms total)
T2218 001:178 JLINK_SetBPEx(Addr = 0x20000000, Type = 0xFFFFFFF2)  returns 0x00000007 (0000ms, 0812ms total)
T2218 001:178 JLINK_Go() (0002ms, 0814ms total)
T2218 001:180 JLINK_IsHalted()  returns FALSE (0001ms, 0815ms total)
T2218 001:182 JLINK_IsHalted()  returns FALSE (0000ms, 0814ms total)
T2218 001:183 JLINK_IsHalted()  returns FALSE (0000ms, 0814ms total)
T2218 001:184 JLINK_IsHalted()  returns FALSE (0000ms, 0814ms total)
T2218 001:185 JLINK_IsHalted() -- CPU_ReadMem(2 bytes @ 0x20000000)  returns TRUE (0005ms, 0819ms total)
T2218 001:190 JLINK_ReadReg(R15 (PC))  returns 0x20000000 (0000ms, 0814ms total)
T2218 001:190 JLINK_ClrBPEx(BPHandle = 0x00000007)  returns 0x00 (0000ms, 0814ms total)
T2218 001:190 JLINK_ReadReg(R0)  returns 0x00000000 (0000ms, 0814ms total)
T2218 001:191 JLINK_WriteMem(0x20000180, 0x0400 Bytes, ...) -- Data:  9A 42 15 D1 A2 EB 0C 03 93 43 13 EA CC 13 0B D1 ... -- CPU_WriteMem(1024 bytes @ 0x20000180)  returns 0x400 (0014ms, 0828ms total)
T2218 001:205 JLINK_WriteReg(R0, 0x08010C00)  returns 0x00 (0000ms, 0828ms total)
T2218 001:205 JLINK_WriteReg(R1, 0x00000400)  returns 0x00 (0000ms, 0828ms total)
T2218 001:205 JLINK_WriteReg(R2, 0x20000180)  returns 0x00 (0000ms, 0828ms total)
T2218 001:205 JLINK_WriteReg(R3, 0x00000000)  returns 0x00 (0000ms, 0828ms total)
T2218 001:205 JLINK_WriteReg(R4, 0x00000000)  returns 0x00 (0000ms, 0828ms total)
T2218 001:205 JLINK_WriteReg(R5, 0x00000000)  returns 0x00 (0000ms, 0828ms total)
T2218 001:205 JLINK_WriteReg(R6, 0x00000000)  returns 0x00 (0000ms, 0828ms total)
T2218 001:205 JLINK_WriteReg(R7, 0x00000000)  returns 0x00 (0000ms, 0828ms total)
T2218 001:205 JLINK_WriteReg(R8, 0x00000000)  returns 0x00 (0000ms, 0828ms total)
T2218 001:205 JLINK_WriteReg(R9, 0x2000017C)  returns 0x00 (0000ms, 0828ms total)
T2218 001:205 JLINK_WriteReg(R10, 0x00000000)  returns 0x00 (0000ms, 0828ms total)
T2218 001:205 JLINK_WriteReg(R11, 0x00000000)  returns 0x00 (0000ms, 0828ms total)
T2218 001:205 JLINK_WriteReg(R12, 0x00000000)  returns 0x00 (0000ms, 0828ms total)
T2218 001:205 JLINK_WriteReg(R13 (SP), 0x20001000)  returns 0x00 (0000ms, 0828ms total)
T2218 001:205 JLINK_WriteReg(R14, 0x20000001)  returns 0x00 (0000ms, 0828ms total)
T2218 001:205 JLINK_WriteReg(R15 (PC), 0x20000108)  returns 0x00 (0000ms, 0828ms total)
T2218 001:205 JLINK_WriteReg(XPSR, 0x01000000)  returns 0x00 (0000ms, 0828ms total)
T2218 001:205 JLINK_WriteReg(MSP, 0x20001000)  returns 0x00 (0000ms, 0828ms total)
T2218 001:205 JLINK_WriteReg(PSP, 0x20001000)  returns 0x00 (0000ms, 0828ms total)
T2218 001:205 JLINK_WriteReg(CFBP, 0x00000000)  returns 0x00 (0000ms, 0828ms total)
T2218 001:205 JLINK_SetBPEx(Addr = 0x20000000, Type = 0xFFFFFFF2)  returns 0x00000008 (0000ms, 0828ms total)
T2218 001:205 JLINK_Go() (0003ms, 0831ms total)
T2218 001:208 JLINK_IsHalted()  returns FALSE (0001ms, 0832ms total)
T2218 001:210 JLINK_IsHalted()  returns FALSE (0001ms, 0832ms total)
T2218 001:212 JLINK_IsHalted() -- CPU_ReadMem(2 bytes @ 0x20000000)  returns TRUE (0006ms, 0837ms total)
T2218 001:218 JLINK_ReadReg(R15 (PC))  returns 0x20000000 (0000ms, 0831ms total)
T2218 001:218 JLINK_ClrBPEx(BPHandle = 0x00000008)  returns 0x00 (0000ms, 0831ms total)
T2218 001:218 JLINK_ReadReg(R0)  returns 0x00000000 (0000ms, 0831ms total)
T2218 001:219 JLINK_WriteMem(0x20000180, 0x0400 Bytes, ...) -- Data:  B9 F1 01 0F 01 DA 4F F0 01 09 00 20 B9 F1 11 0F ... -- CPU_WriteMem(1024 bytes @ 0x20000180)  returns 0x400 (0014ms, 0845ms total)
T2218 001:233 JLINK_WriteReg(R0, 0x08011000)  returns 0x00 (0000ms, 0845ms total)
T2218 001:233 JLINK_WriteReg(R1, 0x00000400)  returns 0x00 (0000ms, 0845ms total)
T2218 001:233 JLINK_WriteReg(R2, 0x20000180)  returns 0x00 (0000ms, 0845ms total)
T2218 001:233 JLINK_WriteReg(R3, 0x00000000)  returns 0x00 (0000ms, 0845ms total)
T2218 001:233 JLINK_WriteReg(R4, 0x00000000)  returns 0x00 (0000ms, 0845ms total)
T2218 001:233 JLINK_WriteReg(R5, 0x00000000)  returns 0x00 (0000ms, 0845ms total)
T2218 001:233 JLINK_WriteReg(R6, 0x00000000)  returns 0x00 (0000ms, 0845ms total)
T2218 001:233 JLINK_WriteReg(R7, 0x00000000)  returns 0x00 (0000ms, 0845ms total)
T2218 001:233 JLINK_WriteReg(R8, 0x00000000)  returns 0x00 (0000ms, 0845ms total)
T2218 001:233 JLINK_WriteReg(R9, 0x2000017C)  returns 0x00 (0000ms, 0845ms total)
T2218 001:233 JLINK_WriteReg(R10, 0x00000000)  returns 0x00 (0000ms, 0845ms total)
T2218 001:233 JLINK_WriteReg(R11, 0x00000000)  returns 0x00 (0000ms, 0845ms total)
T2218 001:233 JLINK_WriteReg(R12, 0x00000000)  returns 0x00 (0000ms, 0845ms total)
T2218 001:234 JLINK_WriteReg(R13 (SP), 0x20001000)  returns 0x00 (0000ms, 0845ms total)
T2218 001:234 JLINK_WriteReg(R14, 0x20000001)  returns 0x00 (0000ms, 0845ms total)
T2218 001:234 JLINK_WriteReg(R15 (PC), 0x20000108)  returns 0x00 (0000ms, 0845ms total)
T2218 001:234 JLINK_WriteReg(XPSR, 0x01000000)  returns 0x00 (0000ms, 0845ms total)
T2218 001:234 JLINK_WriteReg(MSP, 0x20001000)  returns 0x00 (0000ms, 0845ms total)
T2218 001:234 JLINK_WriteReg(PSP, 0x20001000)  returns 0x00 (0000ms, 0845ms total)
T2218 001:234 JLINK_WriteReg(CFBP, 0x00000000)  returns 0x00 (0000ms, 0845ms total)
T2218 001:234 JLINK_SetBPEx(Addr = 0x20000000, Type = 0xFFFFFFF2)  returns 0x00000009 (0000ms, 0845ms total)
T2218 001:234 JLINK_Go() (0002ms, 0847ms total)
T2218 001:236 JLINK_IsHalted()  returns FALSE (0001ms, 0848ms total)
T2218 001:238 JLINK_IsHalted()  returns FALSE (0000ms, 0847ms total)
T2218 001:239 JLINK_IsHalted()  returns FALSE (0000ms, 0847ms total)
T2218 001:240 JLINK_IsHalted()  returns FALSE (0000ms, 0847ms total)
T2218 001:241 JLINK_IsHalted() -- CPU_ReadMem(2 bytes @ 0x20000000)  returns TRUE (0005ms, 0852ms total)
T2218 001:246 JLINK_ReadReg(R15 (PC))  returns 0x20000000 (0000ms, 0847ms total)
T2218 001:246 JLINK_ClrBPEx(BPHandle = 0x00000009)  returns 0x00 (0000ms, 0847ms total)
T2218 001:246 JLINK_ReadReg(R0)  returns 0x00000000 (0000ms, 0847ms total)
T2218 001:246 JLINK_WriteMem(0x20000180, 0x0400 Bytes, ...) -- Data:  09 EB 89 03 49 1C 00 EB 43 09 08 78 FF 28 F7 D1 ... -- CPU_WriteMem(1024 bytes @ 0x20000180)  returns 0x400 (0014ms, 0861ms total)
T2218 001:260 JLINK_WriteReg(R0, 0x08011400)  returns 0x00 (0000ms, 0861ms total)
T2218 001:260 JLINK_WriteReg(R1, 0x00000400)  returns 0x00 (0000ms, 0861ms total)
T2218 001:260 JLINK_WriteReg(R2, 0x20000180)  returns 0x00 (0000ms, 0861ms total)
T2218 001:260 JLINK_WriteReg(R3, 0x00000000)  returns 0x00 (0000ms, 0861ms total)
T2218 001:260 JLINK_WriteReg(R4, 0x00000000)  returns 0x00 (0000ms, 0861ms total)
T2218 001:260 JLINK_WriteReg(R5, 0x00000000)  returns 0x00 (0000ms, 0861ms total)
T2218 001:260 JLINK_WriteReg(R6, 0x00000000)  returns 0x00 (0000ms, 0861ms total)
T2218 001:260 JLINK_WriteReg(R7, 0x00000000)  returns 0x00 (0000ms, 0861ms total)
T2218 001:260 JLINK_WriteReg(R8, 0x00000000)  returns 0x00 (0000ms, 0861ms total)
T2218 001:260 JLINK_WriteReg(R9, 0x2000017C)  returns 0x00 (0000ms, 0861ms total)
T2218 001:260 JLINK_WriteReg(R10, 0x00000000)  returns 0x00 (0000ms, 0861ms total)
T2218 001:260 JLINK_WriteReg(R11, 0x00000000)  returns 0x00 (0000ms, 0861ms total)
T2218 001:260 JLINK_WriteReg(R12, 0x00000000)  returns 0x00 (0000ms, 0861ms total)
T2218 001:260 JLINK_WriteReg(R13 (SP), 0x20001000)  returns 0x00 (0001ms, 0862ms total)
T2218 001:261 JLINK_WriteReg(R14, 0x20000001)  returns 0x00 (0000ms, 0862ms total)
T2218 001:261 JLINK_WriteReg(R15 (PC), 0x20000108)  returns 0x00 (0000ms, 0862ms total)
T2218 001:261 JLINK_WriteReg(XPSR, 0x01000000)  returns 0x00 (0000ms, 0862ms total)
T2218 001:261 JLINK_WriteReg(MSP, 0x20001000)  returns 0x00 (0000ms, 0862ms total)
T2218 001:261 JLINK_WriteReg(PSP, 0x20001000)  returns 0x00 (0000ms, 0862ms total)
T2218 001:261 JLINK_WriteReg(CFBP, 0x00000000)  returns 0x00 (0000ms, 0862ms total)
T2218 001:261 JLINK_SetBPEx(Addr = 0x20000000, Type = 0xFFFFFFF2)  returns 0x0000000A (0000ms, 0862ms total)
T2218 001:261 JLINK_Go() (0002ms, 0864ms total)
T2218 001:263 JLINK_IsHalted()  returns FALSE (0001ms, 0865ms total)
T2218 001:266 JLINK_IsHalted()  returns FALSE (0001ms, 0865ms total)
T2218 001:268 JLINK_IsHalted() -- CPU_ReadMem(2 bytes @ 0x20000000)  returns TRUE (0006ms, 0870ms total)
T2218 001:274 JLINK_ReadReg(R15 (PC))  returns 0x20000000 (0000ms, 0864ms total)
T2218 001:274 JLINK_ClrBPEx(BPHandle = 0x0000000A)  returns 0x00 (0000ms, 0864ms total)
T2218 001:274 JLINK_ReadReg(R0)  returns 0x00000000 (0000ms, 0864ms total)
T2218 001:275 JLINK_WriteMem(0x20000180, 0x0400 Bytes, ...) -- Data:  00 E0 2B 21 08 F8 01 1B CD F8 00 80 21 E0 76 1E ... -- CPU_WriteMem(1024 bytes @ 0x20000180)  returns 0x400 (0014ms, 0878ms total)
T2218 001:289 JLINK_WriteReg(R0, 0x08011800)  returns 0x00 (0000ms, 0878ms total)
T2218 001:289 JLINK_WriteReg(R1, 0x00000400)  returns 0x00 (0000ms, 0878ms total)
T2218 001:289 JLINK_WriteReg(R2, 0x20000180)  returns 0x00 (0000ms, 0878ms total)
T2218 001:289 JLINK_WriteReg(R3, 0x00000000)  returns 0x00 (0000ms, 0878ms total)
T2218 001:289 JLINK_WriteReg(R4, 0x00000000)  returns 0x00 (0000ms, 0878ms total)
T2218 001:289 JLINK_WriteReg(R5, 0x00000000)  returns 0x00 (0000ms, 0878ms total)
T2218 001:289 JLINK_WriteReg(R6, 0x00000000)  returns 0x00 (0000ms, 0878ms total)
T2218 001:289 JLINK_WriteReg(R7, 0x00000000)  returns 0x00 (0000ms, 0878ms total)
T2218 001:289 JLINK_WriteReg(R8, 0x00000000)  returns 0x00 (0001ms, 0879ms total)
T2218 001:290 JLINK_WriteReg(R9, 0x2000017C)  returns 0x00 (0000ms, 0879ms total)
T2218 001:290 JLINK_WriteReg(R10, 0x00000000)  returns 0x00 (0000ms, 0879ms total)
T2218 001:290 JLINK_WriteReg(R11, 0x00000000)  returns 0x00 (0000ms, 0879ms total)
T2218 001:290 JLINK_WriteReg(R12, 0x00000000)  returns 0x00 (0000ms, 0879ms total)
T2218 001:290 JLINK_WriteReg(R13 (SP), 0x20001000)  returns 0x00 (0000ms, 0879ms total)
T2218 001:290 JLINK_WriteReg(R14, 0x20000001)  returns 0x00 (0000ms, 0879ms total)
T2218 001:290 JLINK_WriteReg(R15 (PC), 0x20000108)  returns 0x00 (0000ms, 0879ms total)
T2218 001:290 JLINK_WriteReg(XPSR, 0x01000000)  returns 0x00 (0000ms, 0879ms total)
T2218 001:290 JLINK_WriteReg(MSP, 0x20001000)  returns 0x00 (0000ms, 0879ms total)
T2218 001:290 JLINK_WriteReg(PSP, 0x20001000)  returns 0x00 (0000ms, 0879ms total)
T2218 001:290 JLINK_WriteReg(CFBP, 0x00000000)  returns 0x00 (0000ms, 0879ms total)
T2218 001:290 JLINK_SetBPEx(Addr = 0x20000000, Type = 0xFFFFFFF2)  returns 0x0000000B (0000ms, 0879ms total)
T2218 001:290 JLINK_Go() (0002ms, 0881ms total)
T2218 001:292 JLINK_IsHalted()  returns FALSE (0001ms, 0882ms total)
T2218 001:296 JLINK_IsHalted()  returns FALSE (0001ms, 0882ms total)
T2218 001:298 JLINK_IsHalted() -- CPU_ReadMem(2 bytes @ 0x20000000)  returns TRUE (0006ms, 0887ms total)
T2218 001:304 JLINK_ReadReg(R15 (PC))  returns 0x20000000 (0000ms, 0881ms total)
T2218 001:304 JLINK_ClrBPEx(BPHandle = 0x0000000B)  returns 0x00 (0000ms, 0881ms total)
T2218 001:304 JLINK_ReadReg(R0)  returns 0x00000000 (0000ms, 0881ms total)
T2218 001:305 JLINK_WriteMem(0x20000180, 0x0400 Bytes, ...) -- Data:  00 05 02 D5 7B 48 78 44 02 E0 7A 48 78 44 19 38 ... -- CPU_WriteMem(1024 bytes @ 0x20000180)  returns 0x400 (0014ms, 0895ms total)
T2218 001:319 JLINK_WriteReg(R0, 0x08011C00)  returns 0x00 (0000ms, 0895ms total)
T2218 001:319 JLINK_WriteReg(R1, 0x00000400)  returns 0x00 (0000ms, 0895ms total)
T2218 001:319 JLINK_WriteReg(R2, 0x20000180)  returns 0x00 (0000ms, 0895ms total)
T2218 001:319 JLINK_WriteReg(R3, 0x00000000)  returns 0x00 (0000ms, 0895ms total)
T2218 001:319 JLINK_WriteReg(R4, 0x00000000)  returns 0x00 (0000ms, 0895ms total)
T2218 001:319 JLINK_WriteReg(R5, 0x00000000)  returns 0x00 (0000ms, 0895ms total)
T2218 001:319 JLINK_WriteReg(R6, 0x00000000)  returns 0x00 (0000ms, 0895ms total)
T2218 001:319 JLINK_WriteReg(R7, 0x00000000)  returns 0x00 (0000ms, 0895ms total)
T2218 001:319 JLINK_WriteReg(R8, 0x00000000)  returns 0x00 (0000ms, 0895ms total)
T2218 001:319 JLINK_WriteReg(R9, 0x2000017C)  returns 0x00 (0000ms, 0895ms total)
T2218 001:319 JLINK_WriteReg(R10, 0x00000000)  returns 0x00 (0000ms, 0895ms total)
T2218 001:319 JLINK_WriteReg(R11, 0x00000000)  returns 0x00 (0000ms, 0895ms total)
T2218 001:319 JLINK_WriteReg(R12, 0x00000000)  returns 0x00 (0000ms, 0895ms total)
T2218 001:319 JLINK_WriteReg(R13 (SP), 0x20001000)  returns 0x00 (0000ms, 0895ms total)
T2218 001:319 JLINK_WriteReg(R14, 0x20000001)  returns 0x00 (0000ms, 0895ms total)
T2218 001:319 JLINK_WriteReg(R15 (PC), 0x20000108)  returns 0x00 (0000ms, 0895ms total)
T2218 001:319 JLINK_WriteReg(XPSR, 0x01000000)  returns 0x00 (0000ms, 0895ms total)
T2218 001:319 JLINK_WriteReg(MSP, 0x20001000)  returns 0x00 (0000ms, 0895ms total)
T2218 001:319 JLINK_WriteReg(PSP, 0x20001000)  returns 0x00 (0000ms, 0895ms total)
T2218 001:319 JLINK_WriteReg(CFBP, 0x00000000)  returns 0x00 (0000ms, 0895ms total)
T2218 001:319 JLINK_SetBPEx(Addr = 0x20000000, Type = 0xFFFFFFF2)  returns 0x0000000C (0000ms, 0895ms total)
T2218 001:319 JLINK_Go() (0003ms, 0898ms total)
T2218 001:322 JLINK_IsHalted()  returns FALSE (0001ms, 0899ms total)
T2218 001:325 JLINK_IsHalted()  returns FALSE (0001ms, 0899ms total)
T2218 001:327 JLINK_IsHalted() -- CPU_ReadMem(2 bytes @ 0x20000000)  returns TRUE (0005ms, 0903ms total)
T2218 001:332 JLINK_ReadReg(R15 (PC))  returns 0x20000000 (0000ms, 0898ms total)
T2218 001:332 JLINK_ClrBPEx(BPHandle = 0x0000000C)  returns 0x00 (0000ms, 0898ms total)
T2218 001:332 JLINK_ReadReg(R0)  returns 0x00000000 (0000ms, 0898ms total)
T2218 001:333 JLINK_WriteMem(0x20000180, 0x0400 Bytes, ...) -- Data:  7C D0 64 28 23 D1 5A E0 F6 E0 6F 28 48 D0 08 DC ... -- CPU_WriteMem(1024 bytes @ 0x20000180)  returns 0x400 (0014ms, 0912ms total)
T2218 001:347 JLINK_WriteReg(R0, 0x08012000)  returns 0x00 (0000ms, 0912ms total)
T2218 001:347 JLINK_WriteReg(R1, 0x00000400)  returns 0x00 (0000ms, 0912ms total)
T2218 001:347 JLINK_WriteReg(R2, 0x20000180)  returns 0x00 (0000ms, 0912ms total)
T2218 001:347 JLINK_WriteReg(R3, 0x00000000)  returns 0x00 (0000ms, 0912ms total)
T2218 001:347 JLINK_WriteReg(R4, 0x00000000)  returns 0x00 (0000ms, 0912ms total)
T2218 001:347 JLINK_WriteReg(R5, 0x00000000)  returns 0x00 (0000ms, 0912ms total)
T2218 001:347 JLINK_WriteReg(R6, 0x00000000)  returns 0x00 (0000ms, 0912ms total)
T2218 001:347 JLINK_WriteReg(R7, 0x00000000)  returns 0x00 (0000ms, 0912ms total)
T2218 001:347 JLINK_WriteReg(R8, 0x00000000)  returns 0x00 (0000ms, 0912ms total)
T2218 001:347 JLINK_WriteReg(R9, 0x2000017C)  returns 0x00 (0000ms, 0912ms total)
T2218 001:347 JLINK_WriteReg(R10, 0x00000000)  returns 0x00 (0000ms, 0912ms total)
T2218 001:347 JLINK_WriteReg(R11, 0x00000000)  returns 0x00 (0000ms, 0912ms total)
T2218 001:347 JLINK_WriteReg(R12, 0x00000000)  returns 0x00 (0000ms, 0912ms total)
T2218 001:347 JLINK_WriteReg(R13 (SP), 0x20001000)  returns 0x00 (0000ms, 0912ms total)
T2218 001:347 JLINK_WriteReg(R14, 0x20000001)  returns 0x00 (0000ms, 0912ms total)
T2218 001:347 JLINK_WriteReg(R15 (PC), 0x20000108)  returns 0x00 (0000ms, 0912ms total)
T2218 001:347 JLINK_WriteReg(XPSR, 0x01000000)  returns 0x00 (0000ms, 0912ms total)
T2218 001:347 JLINK_WriteReg(MSP, 0x20001000)  returns 0x00 (0000ms, 0912ms total)
T2218 001:347 JLINK_WriteReg(PSP, 0x20001000)  returns 0x00 (0000ms, 0912ms total)
T2218 001:347 JLINK_WriteReg(CFBP, 0x00000000)  returns 0x00 (0000ms, 0912ms total)
T2218 001:347 JLINK_SetBPEx(Addr = 0x20000000, Type = 0xFFFFFFF2)  returns 0x0000000D (0000ms, 0912ms total)
T2218 001:347 JLINK_Go() (0003ms, 0915ms total)
T2218 001:350 JLINK_IsHalted()  returns FALSE (0001ms, 0916ms total)
T2218 001:352 JLINK_IsHalted()  returns FALSE (0001ms, 0916ms total)
T2218 001:355 JLINK_IsHalted() -- CPU_ReadMem(2 bytes @ 0x20000000)  returns TRUE (0005ms, 0920ms total)
T2218 001:360 JLINK_ReadReg(R15 (PC))  returns 0x20000000 (0000ms, 0915ms total)
T2218 001:360 JLINK_ClrBPEx(BPHandle = 0x0000000D)  returns 0x00 (0000ms, 0915ms total)
T2218 001:360 JLINK_ReadReg(R0)  returns 0x00000000 (0000ms, 0915ms total)
T2218 001:361 JLINK_WriteMem(0x20000180, 0x0400 Bytes, ...) -- Data:  FD F7 F6 FF BD E8 20 40 4F F0 00 06 4F F0 00 07 ... -- CPU_WriteMem(1024 bytes @ 0x20000180)  returns 0x400 (0013ms, 0928ms total)
T2218 001:374 JLINK_WriteReg(R0, 0x08012400)  returns 0x00 (0000ms, 0928ms total)
T2218 001:374 JLINK_WriteReg(R1, 0x00000400)  returns 0x00 (0001ms, 0929ms total)
T2218 001:375 JLINK_WriteReg(R2, 0x20000180)  returns 0x00 (0000ms, 0929ms total)
T2218 001:375 JLINK_WriteReg(R3, 0x00000000)  returns 0x00 (0000ms, 0929ms total)
T2218 001:375 JLINK_WriteReg(R4, 0x00000000)  returns 0x00 (0000ms, 0929ms total)
T2218 001:375 JLINK_WriteReg(R5, 0x00000000)  returns 0x00 (0000ms, 0929ms total)
T2218 001:375 JLINK_WriteReg(R6, 0x00000000)  returns 0x00 (0000ms, 0929ms total)
T2218 001:375 JLINK_WriteReg(R7, 0x00000000)  returns 0x00 (0000ms, 0929ms total)
T2218 001:375 JLINK_WriteReg(R8, 0x00000000)  returns 0x00 (0000ms, 0929ms total)
T2218 001:375 JLINK_WriteReg(R9, 0x2000017C)  returns 0x00 (0000ms, 0929ms total)
T2218 001:375 JLINK_WriteReg(R10, 0x00000000)  returns 0x00 (0000ms, 0929ms total)
T2218 001:375 JLINK_WriteReg(R11, 0x00000000)  returns 0x00 (0000ms, 0929ms total)
T2218 001:375 JLINK_WriteReg(R12, 0x00000000)  returns 0x00 (0000ms, 0929ms total)
T2218 001:375 JLINK_WriteReg(R13 (SP), 0x20001000)  returns 0x00 (0000ms, 0929ms total)
T2218 001:375 JLINK_WriteReg(R14, 0x20000001)  returns 0x00 (0000ms, 0929ms total)
T2218 001:375 JLINK_WriteReg(R15 (PC), 0x20000108)  returns 0x00 (0000ms, 0929ms total)
T2218 001:375 JLINK_WriteReg(XPSR, 0x01000000)  returns 0x00 (0000ms, 0929ms total)
T2218 001:375 JLINK_WriteReg(MSP, 0x20001000)  returns 0x00 (0000ms, 0929ms total)
T2218 001:375 JLINK_WriteReg(PSP, 0x20001000)  returns 0x00 (0000ms, 0929ms total)
T2218 001:375 JLINK_WriteReg(CFBP, 0x00000000)  returns 0x00 (0000ms, 0929ms total)
T2218 001:375 JLINK_SetBPEx(Addr = 0x20000000, Type = 0xFFFFFFF2)  returns 0x0000000E (0000ms, 0929ms total)
T2218 001:375 JLINK_Go() (0002ms, 0931ms total)
T2218 001:377 JLINK_IsHalted()  returns FALSE (0001ms, 0932ms total)
T2218 001:379 JLINK_IsHalted()  returns FALSE (0004ms, 0935ms total)
T2218 001:384 JLINK_IsHalted() -- CPU_ReadMem(2 bytes @ 0x20000000)  returns TRUE (0005ms, 0936ms total)
T2218 001:389 JLINK_ReadReg(R15 (PC))  returns 0x20000000 (0000ms, 0931ms total)
T2218 001:389 JLINK_ClrBPEx(BPHandle = 0x0000000E)  returns 0x00 (0000ms, 0931ms total)
T2218 001:389 JLINK_ReadReg(R0)  returns 0x00000000 (0000ms, 0931ms total)
T2218 001:390 JLINK_WriteMem(0x20000180, 0x0400 Bytes, ...) -- Data:  08 2E E0 D1 60 1C CA F8 00 00 DC E7 A9 69 06 98 ... -- CPU_WriteMem(1024 bytes @ 0x20000180)  returns 0x400 (0014ms, 0945ms total)
T2218 001:404 JLINK_WriteReg(R0, 0x08012800)  returns 0x00 (0000ms, 0945ms total)
T2218 001:404 JLINK_WriteReg(R1, 0x00000400)  returns 0x00 (0000ms, 0945ms total)
T2218 001:404 JLINK_WriteReg(R2, 0x20000180)  returns 0x00 (0000ms, 0945ms total)
T2218 001:404 JLINK_WriteReg(R3, 0x00000000)  returns 0x00 (0000ms, 0945ms total)
T2218 001:404 JLINK_WriteReg(R4, 0x00000000)  returns 0x00 (0000ms, 0945ms total)
T2218 001:404 JLINK_WriteReg(R5, 0x00000000)  returns 0x00 (0000ms, 0945ms total)
T2218 001:404 JLINK_WriteReg(R6, 0x00000000)  returns 0x00 (0000ms, 0945ms total)
T2218 001:404 JLINK_WriteReg(R7, 0x00000000)  returns 0x00 (0000ms, 0945ms total)
T2218 001:404 JLINK_WriteReg(R8, 0x00000000)  returns 0x00 (0000ms, 0945ms total)
T2218 001:404 JLINK_WriteReg(R9, 0x2000017C)  returns 0x00 (0000ms, 0945ms total)
T2218 001:404 JLINK_WriteReg(R10, 0x00000000)  returns 0x00 (0000ms, 0945ms total)
T2218 001:404 JLINK_WriteReg(R11, 0x00000000)  returns 0x00 (0000ms, 0945ms total)
T2218 001:404 JLINK_WriteReg(R12, 0x00000000)  returns 0x00 (0000ms, 0945ms total)
T2218 001:404 JLINK_WriteReg(R13 (SP), 0x20001000)  returns 0x00 (0000ms, 0945ms total)
T2218 001:404 JLINK_WriteReg(R14, 0x20000001)  returns 0x00 (0000ms, 0945ms total)
T2218 001:404 JLINK_WriteReg(R15 (PC), 0x20000108)  returns 0x00 (0000ms, 0945ms total)
T2218 001:404 JLINK_WriteReg(XPSR, 0x01000000)  returns 0x00 (0000ms, 0945ms total)
T2218 001:404 JLINK_WriteReg(MSP, 0x20001000)  returns 0x00 (0000ms, 0945ms total)
T2218 001:404 JLINK_WriteReg(PSP, 0x20001000)  returns 0x00 (0000ms, 0945ms total)
T2218 001:404 JLINK_WriteReg(CFBP, 0x00000000)  returns 0x00 (0000ms, 0945ms total)
T2218 001:404 JLINK_SetBPEx(Addr = 0x20000000, Type = 0xFFFFFFF2)  returns 0x0000000F (0000ms, 0945ms total)
T2218 001:404 JLINK_Go() (0003ms, 0948ms total)
T2218 001:407 JLINK_IsHalted()  returns FALSE (0001ms, 0949ms total)
T2218 001:409 JLINK_IsHalted()  returns FALSE (0001ms, 0949ms total)
T2218 001:411 JLINK_IsHalted() -- CPU_ReadMem(2 bytes @ 0x20000000)  returns TRUE (0005ms, 0953ms total)
T2218 001:416 JLINK_ReadReg(R15 (PC))  returns 0x20000000 (0000ms, 0948ms total)
T2218 001:416 JLINK_ClrBPEx(BPHandle = 0x0000000F)  returns 0x00 (0000ms, 0948ms total)
T2218 001:416 JLINK_ReadReg(R0)  returns 0x00000000 (0000ms, 0948ms total)
T2218 001:417 JLINK_WriteMem(0x20000180, 0x0400 Bytes, ...) -- Data:  00 18 52 41 49 41 4B EB 0B 0B B2 EB 08 0C 71 EB ... -- CPU_WriteMem(1024 bytes @ 0x20000180)  returns 0x400 (0014ms, 0962ms total)
T2218 001:431 JLINK_WriteReg(R0, 0x08012C00)  returns 0x00 (0000ms, 0962ms total)
T2218 001:431 JLINK_WriteReg(R1, 0x00000400)  returns 0x00 (0000ms, 0962ms total)
T2218 001:431 JLINK_WriteReg(R2, 0x20000180)  returns 0x00 (0000ms, 0962ms total)
T2218 001:431 JLINK_WriteReg(R3, 0x00000000)  returns 0x00 (0000ms, 0962ms total)
T2218 001:431 JLINK_WriteReg(R4, 0x00000000)  returns 0x00 (0000ms, 0962ms total)
T2218 001:431 JLINK_WriteReg(R5, 0x00000000)  returns 0x00 (0000ms, 0962ms total)
T2218 001:431 JLINK_WriteReg(R6, 0x00000000)  returns 0x00 (0000ms, 0962ms total)
T2218 001:431 JLINK_WriteReg(R7, 0x00000000)  returns 0x00 (0000ms, 0962ms total)
T2218 001:431 JLINK_WriteReg(R8, 0x00000000)  returns 0x00 (0000ms, 0962ms total)
T2218 001:431 JLINK_WriteReg(R9, 0x2000017C)  returns 0x00 (0000ms, 0962ms total)
T2218 001:431 JLINK_WriteReg(R10, 0x00000000)  returns 0x00 (0000ms, 0962ms total)
T2218 001:431 JLINK_WriteReg(R11, 0x00000000)  returns 0x00 (0000ms, 0962ms total)
T2218 001:431 JLINK_WriteReg(R12, 0x00000000)  returns 0x00 (0000ms, 0962ms total)
T2218 001:431 JLINK_WriteReg(R13 (SP), 0x20001000)  returns 0x00 (0000ms, 0962ms total)
T2218 001:431 JLINK_WriteReg(R14, 0x20000001)  returns 0x00 (0000ms, 0962ms total)
T2218 001:431 JLINK_WriteReg(R15 (PC), 0x20000108)  returns 0x00 (0000ms, 0962ms total)
T2218 001:431 JLINK_WriteReg(XPSR, 0x01000000)  returns 0x00 (0000ms, 0962ms total)
T2218 001:431 JLINK_WriteReg(MSP, 0x20001000)  returns 0x00 (0000ms, 0962ms total)
T2218 001:431 JLINK_WriteReg(PSP, 0x20001000)  returns 0x00 (0000ms, 0962ms total)
T2218 001:431 JLINK_WriteReg(CFBP, 0x00000000)  returns 0x00 (0000ms, 0962ms total)
T2218 001:431 JLINK_SetBPEx(Addr = 0x20000000, Type = 0xFFFFFFF2)  returns 0x00000010 (0000ms, 0962ms total)
T2218 001:431 JLINK_Go() (0003ms, 0965ms total)
T2218 001:434 JLINK_IsHalted()  returns FALSE (0001ms, 0966ms total)
T2218 001:436 JLINK_IsHalted()  returns FALSE (0001ms, 0966ms total)
T2218 001:438 JLINK_IsHalted() -- CPU_ReadMem(2 bytes @ 0x20000000)  returns TRUE (0005ms, 0970ms total)
T2218 001:443 JLINK_ReadReg(R15 (PC))  returns 0x20000000 (0000ms, 0965ms total)
T2218 001:443 JLINK_ClrBPEx(BPHandle = 0x00000010)  returns 0x00 (0001ms, 0966ms total)
T2218 001:444 JLINK_ReadReg(R0)  returns 0x00000000 (0000ms, 0966ms total)
T2218 001:444 JLINK_WriteMem(0x20000180, 0x0400 Bytes, ...) -- Data:  02 02 41 41 46 EA 9E 06 01 D5 BD E8 01 89 B6 19 ... -- CPU_WriteMem(1024 bytes @ 0x20000180)  returns 0x400 (0014ms, 0980ms total)
T2218 001:458 JLINK_WriteReg(R0, 0x08013000)  returns 0x00 (0000ms, 0980ms total)
T2218 001:458 JLINK_WriteReg(R1, 0x00000400)  returns 0x00 (0000ms, 0980ms total)
T2218 001:458 JLINK_WriteReg(R2, 0x20000180)  returns 0x00 (0000ms, 0980ms total)
T2218 001:458 JLINK_WriteReg(R3, 0x00000000)  returns 0x00 (0000ms, 0980ms total)
T2218 001:458 JLINK_WriteReg(R4, 0x00000000)  returns 0x00 (0000ms, 0980ms total)
T2218 001:458 JLINK_WriteReg(R5, 0x00000000)  returns 0x00 (0000ms, 0980ms total)
T2218 001:458 JLINK_WriteReg(R6, 0x00000000)  returns 0x00 (0000ms, 0980ms total)
T2218 001:458 JLINK_WriteReg(R7, 0x00000000)  returns 0x00 (0000ms, 0980ms total)
T2218 001:458 JLINK_WriteReg(R8, 0x00000000)  returns 0x00 (0000ms, 0980ms total)
T2218 001:458 JLINK_WriteReg(R9, 0x2000017C)  returns 0x00 (0000ms, 0980ms total)
T2218 001:458 JLINK_WriteReg(R10, 0x00000000)  returns 0x00 (0000ms, 0980ms total)
T2218 001:458 JLINK_WriteReg(R11, 0x00000000)  returns 0x00 (0000ms, 0980ms total)
T2218 001:458 JLINK_WriteReg(R12, 0x00000000)  returns 0x00 (0000ms, 0980ms total)
T2218 001:458 JLINK_WriteReg(R13 (SP), 0x20001000)  returns 0x00 (0000ms, 0980ms total)
T2218 001:458 JLINK_WriteReg(R14, 0x20000001)  returns 0x00 (0000ms, 0980ms total)
T2218 001:458 JLINK_WriteReg(R15 (PC), 0x20000108)  returns 0x00 (0000ms, 0980ms total)
T2218 001:458 JLINK_WriteReg(XPSR, 0x01000000)  returns 0x00 (0000ms, 0980ms total)
T2218 001:458 JLINK_WriteReg(MSP, 0x20001000)  returns 0x00 (0000ms, 0980ms total)
T2218 001:458 JLINK_WriteReg(PSP, 0x20001000)  returns 0x00 (0000ms, 0980ms total)
T2218 001:458 JLINK_WriteReg(CFBP, 0x00000000)  returns 0x00 (0000ms, 0980ms total)
T2218 001:458 JLINK_SetBPEx(Addr = 0x20000000, Type = 0xFFFFFFF2)  returns 0x00000011 (0000ms, 0980ms total)
T2218 001:458 JLINK_Go() (0003ms, 0983ms total)
T2218 001:461 JLINK_IsHalted()  returns FALSE (0001ms, 0984ms total)
T2218 001:464 JLINK_IsHalted()  returns FALSE (0001ms, 0984ms total)
T2218 001:466 JLINK_IsHalted() -- CPU_ReadMem(2 bytes @ 0x20000000)  returns TRUE (0006ms, 0989ms total)
